,operating_frequency,S11 (dB20),S21 (dB20),NF (dB10),Lg,Ls,Ld,W
0,3160000000,-17.93530207234147,13.81810698201569,2.223768888850981,3e-09,5e-10,4e-09,0.0002
1,3160000000,-20.99601523577056,13.52836707631797,2.244971018554285,3e-09,5.555556e-10,4e-09,0.0002
2,3160000000,-25.15667063573012,13.2474264024044,2.267253011702916,3e-09,6.111111e-10,4e-09,0.0002
3,3100000000,-33.28899391177093,12.71486475324794,2.238549370815948,3e-09,6.666667e-10,4e-09,0.0002
4,3100000000,-39.43894053533212,12.45113248362739,2.260583728127857,3e-09,7.222222e-10,4e-09,0.0002
5,3100000000,-27.81187181164869,12.19478082280003,2.283601241936232,3e-09,7.777778e-10,4e-09,0.0002
6,3040000000,-23.23590360326271,11.62293316207168,2.253024538486821,3e-09,8.333333e-10,4e-09,0.0002
7,3040000000,-20.52098988986819,11.38114820153056,2.275615878337234,3e-09,8.888889e-10,4e-09,0.0002
8,3040000000,-18.50653431799354,11.14562734652184,2.299103041350602,3e-09,9.444444e-10,4e-09,0.0002
9,3040000000,-16.93470397272644,10.91609779505087,2.323466282467168,3e-09,1e-09,4e-09,0.0002
10,3040000000,-17.907936481151,13.24034540994236,2.141508467067371,3.333333e-09,5e-10,4e-09,0.0002
11,3040000000,-20.87849624292672,12.94816874493057,2.161298883548573,3.333333e-09,5.555556e-10,4e-09,0.0002
12,2980000000,-25.31615391907344,12.30584064441721,2.132596869469831,3.333333e-09,6.111111e-10,4e-09,0.0002
13,2980000000,-33.81293208713298,12.03254463087629,2.152046828770648,3.333333e-09,6.666667e-10,4e-09,0.0002
14,2980000000,-38.11075852288619,11.76717689396496,2.172394804149465,3.333333e-09,7.222222e-10,4e-09,0.0002
15,2980000000,-27.51808274437718,11.50934920816631,2.193623472877935,3.333333e-09,7.777778e-10,4e-09,0.0002
16,2920000000,-23.25567695326114,10.87119372115436,2.162132572158152,3.333333e-09,8.333333e-10,4e-09,0.0002
17,2920000000,-20.50770822326954,10.62832165566588,2.182809219100027,3.333333e-09,8.888889e-10,4e-09,0.0002
18,2920000000,-18.48750437066811,10.39180659379763,2.204291209185808,3.333333e-09,9.444444e-10,4e-09,0.0002
19,2920000000,-16.91661824088139,10.16136379575109,2.226562332454527,3.333333e-09,1e-09,4e-09,0.0002
20,2920000000,-17.9174080172291,12.49484879066966,2.061175903930533,3.666667e-09,5e-10,4e-09,0.0002
21,2860000000,-20.90504923309608,11.80204911861793,2.033183694743661,3.666667e-09,5.555556e-10,4e-09,0.0002
22,2860000000,-25.37233055173423,11.51936114627529,2.050001889307684,3.666667e-09,6.111111e-10,4e-09,0.0002
23,2860000000,-33.96849120319123,11.24511473132289,2.067637566275636,3.666667e-09,6.666667e-10,4e-09,0.0002
24,2860000000,-38.17736957688328,10.97888301762881,2.086076951094994,3.666667e-09,7.222222e-10,4e-09,0.0002
25,2860000000,-27.51726422753023,10.7202652190492,2.105305983557595,3.666667e-09,7.777778e-10,4e-09,0.0002
26,2800000000,-23.15006718392472,10.06460393426763,2.073698142751917,3.666667e-09,8.333333e-10,4e-09,0.0002
27,2800000000,-20.46678033781706,9.821247940372745,2.092286473896197,3.666667e-09,8.888889e-10,4e-09,0.0002
28,2800000000,-18.47291464438537,9.584279940084128,2.111599167688862,3.666667e-09,9.444444e-10,4e-09,0.0002
29,2800000000,-16.91499700848323,9.3534103499453,2.131623115179929,3.666667e-09,1e-09,4e-09,0.0002
30,2800000000,-17.971690181101,11.69383574294626,1.982512875284483,4e-09,5e-10,4e-09,0.0002
31,2800000000,-20.99938314492345,11.39965765057294,1.998731304269801,4e-09,5.555556e-10,4e-09,0.0002
32,2740000000,-25.15459996676119,10.71485893233144,1.969754748039442,4e-09,6.111111e-10,4e-09,0.0002
33,2740000000,-33.27613398978048,10.44041818357686,1.98542130337522,4e-09,6.666667e-10,4e-09,0.0002
34,2740000000,-38.48177736051548,10.17399254730073,2.00180695117077,4e-09,7.222222e-10,4e-09,0.0002
35,2740000000,-27.74072583257723,9.915179619357732,2.01890047208836,4e-09,7.777778e-10,4e-09,0.0002
36,2740000000,-23.21331157121578,9.663602180556282,2.036690421583691,4e-09,8.333333e-10,4e-09,0.0002
37,2740000000,-20.38971071823558,9.418906756818402,2.055165147258067,4e-09,8.888889e-10,4e-09,0.0002
38,2680000000,-18.42691526546102,8.788064965352278,2.021584104250221,4e-09,9.444444e-10,4e-09,0.0002
39,2680000000,-16.906279842182,8.557211876085521,2.039271838829012,4e-09,1e-09,4e-09,0.0002
40,2680000000,-17.9910933061283,10.90254847290499,1.905982726240469,4.333333e-09,5e-10,4e-09,0.0002
41,2680000000,-21.1190963439618,10.60858183587722,1.920200469422249,4.333333e-09,5.555556e-10,4e-09,0.0002
42,2680000000,-25.54647045127602,10.32381287232909,1.935106326474907,4.333333e-09,6.111111e-10,4e-09,0.0002
43,2680000000,-32.92270981007621,10.04774199298077,1.950690449506149,4.333333e-09,6.666667e-10,4e-09,0.0002
44,2680000000,-33.58929300582997,9.779904120178372,1.966942770783946,4.333333e-09,7.222222e-10,4e-09,0.0002
45,2620000000,-27.37882917271706,9.139900059818318,1.935293328639844,4.333333e-09,7.777778e-10,4e-09,0.0002
46,2620000000,-23.23246894842666,8.888652163589747,1.950805370959148,4.333333e-09,8.333333e-10,4e-09,0.0002
47,2620000000,-20.47390555559583,8.644226025956335,1.966932864326091,4.333333e-09,8.888889e-10,4e-09,0.0002
48,2620000000,-18.46182332998173,8.406296553150735,1.983666480268387,4.333333e-09,9.444444e-10,4e-09,0.0002
49,2620000000,-16.90094939313661,8.1745587521384,2.000996733403548,4.333333e-09,1e-09,4e-09,0.0002
50,2620000000,-17.99693885940335,10.52195687794317,1.873148268076552,4.666667e-09,5e-10,4e-09,0.0002
51,2620000000,-20.97021716414653,10.22645613527715,1.88722045170011,4.666667e-09,5.555556e-10,4e-09,0.0002
52,2560000000,-25.25633306683086,9.57405753524271,1.857590586033353,4.666667e-09,6.111111e-10,4e-09,0.0002
53,2560000000,-33.44391352289512,9.298779193696117,1.870972643393589,4.666667e-09,6.666667e-10,4e-09,0.0002
54,2560000000,-38.18751373348271,9.03161133778525,1.884952579996564,4.666667e-09,7.222222e-10,4e-09,0.0002
55,2560000000,-27.69790565754096,8.772135724076936,1.899522422737125,4.666667e-09,7.777778e-10,4e-09,0.0002
56,2560000000,-23.20793852384095,8.519961902303468,1.914674031802868,4.666667e-09,8.333333e-10,4e-09,0.0002
57,2560000000,-20.39886320960656,8.274725317016363,1.930399111056091,4.666667e-09,8.888889e-10,4e-09,0.0002
58,2500000000,-18.38341491289092,7.681596668503397,1.897225748311398,4.666667e-09,9.444444e-10,4e-09,0.0002
59,2500000000,-16.8930882601028,7.450489001545336,1.912085610108015,4.666667e-09,1e-09,4e-09,0.0002
60,2500000000,-17.97851863288471,9.801026405292363,1.799383798493849,5e-09,5e-10,4e-09,0.0002
61,2500000000,-21.12046194859369,9.506829931863043,1.811274530043557,5e-09,5.555556e-10,4e-09,0.0002
62,2500000000,-25.64913760258809,9.221852577241188,1.823736131457411,5e-09,6.111111e-10,4e-09,0.0002
63,2500000000,-34.29851277397111,8.945588027513018,1.836761731057972,5e-09,6.666667e-10,4e-09,0.0002
64,2500000000,-36.61633761122041,8.677565862785535,1.850344295182961,5e-09,7.222222e-10,4e-09,0.0002
65,2500000000,-27.24523817410252,8.417348917596073,1.864476636832345,5e-09,7.777778e-10,4e-09,0.0002
66,2500000000,-22.95724322844826,8.164530746638203,1.879151424361627,5e-09,8.333333e-10,4e-09,0.0002
67,2440000000,-20.38500200379674,7.581006177806602,1.846080483896135,5e-09,8.888889e-10,4e-09,0.0002
68,2440000000,-18.45322184785484,7.34321131393275,1.859878569929633,5e-09,9.444444e-10,4e-09,0.0002
69,2440000000,-16.92719651170002,7.111576211147209,1.874177990961152,5e-09,1e-09,4e-09,0.0002
70,2440000000,-18.05707039786532,9.464210085663238,1.766939708815513,5.333333e-09,5e-10,4e-09,0.0002
71,2440000000,-21.18868283647058,9.169106963416455,1.778444413814033,5.333333e-09,5.555556e-10,4e-09,0.0002
72,2440000000,-25.62323721948678,8.883351230856348,1.790480909669013,5.333333e-09,6.111111e-10,4e-09,0.0002
73,2440000000,-33.01570525313492,8.606416993732505,1.803043034870184,5.333333e-09,6.666667e-10,4e-09,0.0002
74,2440000000,-33.61664078546145,8.337817464555101,1.816124486823215,5.333333e-09,7.222222e-10,4e-09,0.0002
75,2380000000,-26.82439672485767,7.753779231720151,1.78487653629468,5.333333e-09,7.777778e-10,4e-09,0.0002
76,2380000000,-23.09364077805719,7.502226903542068,1.797110282593404,5.333333e-09,8.333333e-10,4e-09,0.0002
77,2380000000,-20.44993168375496,7.257521592769524,1.809824200070336,5.333333e-09,8.888889e-10,4e-09,0.0002
78,2380000000,-18.48085582128299,7.019331574561017,1.8230125317289,5.333333e-09,9.444444e-10,4e-09,0.0002
79,2380000000,-16.93925647149195,6.787346404656204,1.836669412691412,5.333333e-09,1e-09,4e-09,0.0002
80,2380000000,-18.08059491619595,9.141562971052329,1.734956247179354,5.666667e-09,5e-10,4e-09,0.0002
81,2380000000,-21.18091529402684,8.84588152777861,1.745979959727576,5.666667e-09,5.555556e-10,4e-09,0.0002
82,2380000000,-25.48068919482255,8.559631325816094,1.757499424574809,5.666667e-09,6.111111e-10,4e-09,0.0002
83,2380000000,-31.86540495192148,8.28227312100424,1.769509154737731,5.666667e-09,6.666667e-10,4e-09,0.0002
84,2380000000,-32.00010573327103,8.01330901773005,1.782003539513431,5.666667e-09,7.222222e-10,4e-09,0.0002
85,2320000000,-27.02629083143664,7.445468060192394,1.750260629327086,5.666667e-09,7.777778e-10,4e-09,0.0002
86,2320000000,-23.15389532809059,7.193623139745952,1.761878096963058,5.666667e-09,8.333333e-10,4e-09,0.0002
87,2320000000,-20.47393941528555,6.94866014665873,1.773944122168456,5.666667e-09,8.888889e-10,4e-09,0.0002
88,2320000000,-18.49292941205028,6.710242143621608,1.786453604701605,5.666667e-09,9.444444e-10,4e-09,0.0002
89,2320000000,-16.94687422462381,6.478054260929738,1.799401348478441,5.666667e-09,1e-09,4e-09,0.0002
90,2320000000,-18.08893818479448,8.833650805791699,1.703230389029772,6e-09,5e-10,4e-09,0.0002
91,2320000000,-21.17392450567724,8.537659373132922,1.713695037475987,6e-09,5.555556e-10,4e-09,0.0002
92,2320000000,-25.41737566902396,8.25114475724628,1.724622143689899,6e-09,6.111111e-10,4e-09,0.0002
93,2320000000,-31.48261958053651,7.973559864558432,1.73600685405984,6e-09,6.666667e-10,4e-09,0.0002
94,2320000000,-31.54821352194692,7.704400316265135,1.74784420582963,6e-09,7.222222e-10,4e-09,0.0002
95,2260000000,-26.96101414099277,7.151277446724061,1.716087336004021,6e-09,7.777778e-10,4e-09,0.0002
96,2260000000,-23.13982155743886,6.899333880979414,1.727029096023715,6e-09,8.333333e-10,4e-09,0.0002
97,2260000000,-20.47504245539182,6.654283544789071,1.738390113231591,6e-09,8.888889e-10,4e-09,0.0002
98,2260000000,-18.50002688955194,6.415787224228945,1.750165897177128,6e-09,9.444444e-10,4e-09,0.0002
99,2260000000,-16.95679894481188,6.183528153415415,1.762351871787939,6e-09,1e-09,4e-09,0.0002
100,3160000000,-18.03666700823415,14.61629941013149,2.220379956455505,3e-09,5e-10,4.444444e-09,0.0002
101,3160000000,-21.07800939168527,14.32842017235902,2.241365275269698,3e-09,5.555556e-10,4.444444e-09,0.0002
102,3100000000,-25.22050714734728,14.06685891266284,2.213658881469884,3e-09,6.111111e-10,4.444444e-09,0.0002
103,3100000000,-33.58797360715077,13.79688307507104,2.234459653597177,3e-09,6.666667e-10,4.444444e-09,0.0002
104,3100000000,-39.0789001581018,13.53456514885111,2.256259593800512,3e-09,7.222222e-10,4.444444e-09,0.0002
105,3100000000,-27.73996580980728,13.27954814144157,2.279037982170655,3e-09,7.777778e-10,4.444444e-09,0.0002
106,3040000000,-23.43605897550823,12.93697699821844,2.248171487226026,3e-09,8.333333e-10,4.444444e-09,0.0002
107,3040000000,-20.64472745517025,12.6962288930535,2.270511466340812,3e-09,8.888889e-10,4.444444e-09,0.0002
108,3040000000,-18.59729703993948,12.46169423792451,2.293743023332263,3e-09,9.444444e-10,4.444444e-09,0.0002
109,3040000000,-17.00808130457919,12.23310341621157,2.317846689717969,3e-09,1e-09,4.444444e-09,0.0002
110,3040000000,-17.88122063351469,14.54468844767541,2.138077744292322,3.333333e-09,5e-10,4.444444e-09,0.0002
111,2980000000,-20.82458875041138,14.06825018828745,2.110380413431977,3.333333e-09,5.555556e-10,4.444444e-09,0.0002
112,2980000000,-25.20434471639376,13.78776785168895,2.128685961580691,3.333333e-09,6.111111e-10,4.444444e-09,0.0002
113,2980000000,-33.28299518720328,13.51556848732971,2.147900934716078,3.333333e-09,6.666667e-10,4.444444e-09,0.0002
114,2980000000,-37.68599824360385,13.25124341493733,2.168008616687596,3.333333e-09,7.222222e-10,4.444444e-09,0.0002
115,2920000000,-27.72659575005741,12.72770853630636,2.137604017462965,3.333333e-09,7.777778e-10,4.444444e-09,0.0002
116,2920000000,-23.50166709381462,12.47890011167119,2.157206065423741,3.333333e-09,8.333333e-10,4.444444e-09,0.0002
117,2920000000,-20.67097546939397,12.23672022861544,2.177624537478228,3.333333e-09,8.888889e-10,4.444444e-09,0.0002
118,2920000000,-18.61105946939457,12.00086888562493,2.198843720659514,3.333333e-09,9.444444e-10,4.444444e-09,0.0002
119,2920000000,-17.01736986288152,11.77106264303645,2.220847665289432,3.333333e-09,1e-09,4.444444e-09,0.0002
120,2920000000,-17.81905603356631,14.0960555400884,2.057703410928239,3.666667e-09,5e-10,4.444444e-09,0.0002
121,2860000000,-20.79229159612862,13.48256881678615,2.029456425782969,3.666667e-09,5.555556e-10,4.444444e-09,0.0002
122,2860000000,-25.16283316231505,13.20054842544719,2.046040260774594,3.666667e-09,6.111111e-10,4.444444e-09,0.0002
123,2860000000,-33.29162158674434,12.92694493317478,2.063435670615751,3.666667e-09,6.666667e-10,4.444444e-09,0.0002
124,2860000000,-38.5188492512702,12.66133185710574,2.081629128341078,3.666667e-09,7.222222e-10,4.444444e-09,0.0002
125,2860000000,-27.74930688277029,12.40330898221725,2.10060682314715,3.666667e-09,7.777778e-10,4.444444e-09,0.0002
126,2800000000,-23.3992691890587,11.78909750011854,2.068698355425271,3.666667e-09,8.333333e-10,4.444444e-09,0.0002
127,2800000000,-20.63696239535938,11.54611710372824,2.087021906988613,3.666667e-09,8.888889e-10,4.444444e-09,0.0002
128,2800000000,-18.60239503564271,11.30951388675046,2.106064763999883,3.666667e-09,9.444444e-10,4.444444e-09,0.0002
129,2800000000,-17.02019391783652,11.07899824201234,2.125814060947952,3.666667e-09,1e-09,4.444444e-09,0.0002
130,2800000000,-17.8522437292023,13.41474171741827,1.978999136770996,4e-09,5e-10,4.444444e-09,0.0002
131,2800000000,-20.81221743775196,13.1210853294208,1.994986412525963,4e-09,5.555556e-10,4.444444e-09,0.0002
132,2740000000,-24.9576014953241,12.45104254578293,1.965742372777255,4e-09,6.111111e-10,4.444444e-09,0.0002
133,2740000000,-32.85605481769947,12.17689363413615,1.981163714560772,4e-09,6.666667e-10,4.444444e-09,0.0002
134,2740000000,-40.01614787036259,11.91075606486691,1.997298103712269,4e-09,7.222222e-10,4.444444e-09,0.0002
135,2740000000,-28.08470942033349,11.65222641292949,2.014134550912238,4e-09,7.777778e-10,4.444444e-09,0.0002
136,2740000000,-23.40858878723715,11.40092671381209,2.031661843493213,4e-09,8.333333e-10,4.444444e-09,0.0002
137,2740000000,-20.52836230229744,11.15650296411158,2.049868562322327,4e-09,8.888889e-10,4.444444e-09,0.0002
138,2680000000,-18.54534050110637,10.51916807624264,2.015963354433322,4e-09,9.444444e-10,4.444444e-09,0.0002
139,2680000000,-17.00251456839328,10.28846694941595,2.033369209740679,4e-09,1e-09,4.444444e-09,0.0002
140,2680000000,-17.8786599879321,12.63182261004378,1.902427867072367,4.333333e-09,5e-10,4.444444e-09,0.0002
141,2680000000,-20.95270785051763,12.33804285787384,1.916410377703783,4.333333e-09,5.555556e-10,4.444444e-09,0.0002
142,2680000000,-25.25386000164845,12.05346425051324,1.931074474664566,4.333333e-09,6.111111e-10,4.444444e-09,0.0002
143,2680000000,-32.19051887956604,11.77758532953436,1.946410526721017,4.333333e-09,6.666667e-10,4.444444e-09,0.0002
144,2620000000,-33.88927651176075,11.1082377764042,1.915835908928243,4.333333e-09,7.222222e-10,4.444444e-09,0.0002
145,2620000000,-27.72157247385645,10.84990071446134,1.930460909345909,4.333333e-09,7.777778e-10,4.444444e-09,0.0002
146,2620000000,-23.43017020098202,10.59873681016334,1.945704489435715,4.333333e-09,8.333333e-10,4.444444e-09,0.0002
147,2620000000,-20.61095467133123,10.35439832183354,1.961557704414017,4.333333e-09,8.888889e-10,4.444444e-09,0.0002
148,2620000000,-18.56687379792135,10.11655915136059,1.978011441889201,4.333333e-09,9.444444e-10,4.444444e-09,0.0002
149,2620000000,-16.98644169392482,9.884913480773529,1.995056433777628,4.333333e-09,1e-09,4.444444e-09,0.0002
150,2620000000,-17.87479459356053,12.23106317529409,1.869576871642089,4.666667e-09,5e-10,4.444444e-09,0.0002
151,2620000000,-20.79440733577874,11.93566403117913,1.883411249058277,4.666667e-09,5.555556e-10,4.444444e-09,0.0002
152,2560000000,-25.05554649323899,11.25425672078551,1.853508456183983,4.666667e-09,6.111111e-10,4.444444e-09,0.0002
153,2560000000,-33.00353234848497,10.97898612478266,1.86663804241126,4.666667e-09,6.666667e-10,4.444444e-09,0.0002
154,2560000000,-39.36262495249,10.71183580416694,1.880358980960426,4.666667e-09,7.222222e-10,4.444444e-09,0.0002
155,2560000000,-27.99602218171719,10.45238573803255,1.894663500397898,4.666667e-09,7.777778e-10,4.444444e-09,0.0002
156,2560000000,-23.37729216188597,10.20024400095055,1.909543664886461,4.666667e-09,8.333333e-10,4.444444e-09,0.0002
157,2560000000,-20.51791266520981,9.955044810355057,1.924991384211209,4.666667e-09,8.888889e-10,4.444444e-09,0.0002
158,2560000000,-18.47503499757898,9.716446647600003,1.940998423815096,4.666667e-09,9.444444e-10,4.444444e-09,0.0002
159,2500000000,-16.96651703428351,9.095392071469014,1.906052965851237,4.666667e-09,1e-09,4.444444e-09,0.0002
160,2500000000,-17.88030294583905,11.44604190898854,1.795771503255551,5e-09,5e-10,4.444444e-09,0.0002
161,2500000000,-20.98176107634831,11.1517810663959,1.807420997417304,5e-09,5.555556e-10,4.444444e-09,0.0002
162,2500000000,-25.417153062068,10.86675480454747,1.81963436415919,5e-09,6.111111e-10,4.444444e-09,0.0002
163,2500000000,-33.66165111263622,10.59045432209108,1.832404919454123,5e-09,6.666667e-10,4.444444e-09,0.0002
164,2500000000,-37.09657847813934,10.32240712897469,1.845725820200063,5e-09,7.222222e-10,4.444444e-09,0.0002
165,2500000000,-27.47283263091931,10.06217433089008,1.859590072539397,5e-09,7.777778e-10,4.444444e-09,0.0002
166,2500000000,-23.09908926952621,9.809348034003287,1.873990540224146,5e-09,8.333333e-10,4.444444e-09,0.0002
167,2440000000,-20.49132704340659,9.187218048624889,1.840595010010522,5e-09,8.888889e-10,4.444444e-09,0.0002
168,2440000000,-18.53556715211125,8.949381227516074,1.854103822807949,5e-09,9.444444e-10,4.444444e-09,0.0002
169,2440000000,-16.99416544272851,8.717711275063918,1.868107932307586,5e-09,1e-09,4.444444e-09,0.0002
170,2440000000,-17.9588037028389,11.07077044155011,1.76331146352831,5.333333e-09,5e-10,4.444444e-09,0.0002
171,2440000000,-21.05007124103999,10.77556816949484,1.774572690053859,5.333333e-09,5.555556e-10,4.444444e-09,0.0002
172,2440000000,-25.39424460938485,10.48972934429541,1.786358617897936,5.333333e-09,6.111111e-10,4.444444e-09,0.0002
173,2440000000,-32.51460300449902,10.21272568991558,1.798663264736192,5.333333e-09,6.666667e-10,4.444444e-09,0.0002
174,2440000000,-33.78598441369363,9.944068422981246,1.811480509989332,5.333333e-09,7.222222e-10,4.444444e-09,0.0002
175,2380000000,-27.03557498426987,9.319999115568248,1.779924609084066,5.333333e-09,7.777778e-10,4.444444e-09,0.0002
176,2380000000,-23.23100761159308,9.068366077203748,1.791878984376298,5.333333e-09,8.333333e-10,4.444444e-09,0.0002
177,2380000000,-20.5478503842264,8.82358983731358,1.804306977391712,5.333333e-09,8.888889e-10,4.444444e-09,0.0002
178,2380000000,-18.55625920065346,8.58533746680405,1.817203011169741,5.333333e-09,9.444444e-10,4.444444e-09,0.0002
179,2380000000,-17.00041695132042,8.353297483008019,1.830561402768318,5.333333e-09,1e-09,4.444444e-09,0.0002
180,2380000000,-17.98582983513669,10.70818037473583,1.731311425138036,5.666667e-09,5e-10,4.444444e-09,0.0002
181,2380000000,-21.04857376519121,10.4123732685626,1.742089574211146,5.666667e-09,5.555556e-10,4.444444e-09,0.0002
182,2380000000,-25.26877747936751,10.12601384207656,1.753356278300288,5.666667e-09,6.111111e-10,4.444444e-09,0.0002
183,2380000000,-31.49083663110718,9.848560563015456,1.765106221056332,5.666667e-09,6.666667e-10,4.444444e-09,0.0002
184,2380000000,-32.10243494064181,9.5795136072143,1.777333965184329,5.666667e-09,7.222222e-10,4.444444e-09,0.0002
